
T062C 000:288 SEGGER J-Link V5.12 Log File (0000ms, 0272ms total)
T062C 000:288 DLL Compiled: Mar 30 2016 17:28:31 (0000ms, 0272ms total)
T062C 000:288 Logging started @ 2018-04-17 17:44 (0000ms, 0272ms total)
T062C 000:288 JLINK_SetWarnOutHandler(...) (0000ms, 0272ms total)
T062C 000:288 JLINK_OpenEx(...)
Firmware: J-Link ARM V8 compiled Nov 28 2014 13:44:46
Hardware: V8.00
S/N: 12345678
Feature(s): RDI,FlashDL,FlashBP,JFlash,GDBFULL  returns O.K. (0270ms, 0542ms total)
T062C 000:558 JLINK_SetErrorOutHandler(...) (0000ms, 0542ms total)
T062C 000:558 JLINK_ExecCommand("ProjectFile = "D:\Keil5Projects\STM32Projects\Counter\JLinkSettings.ini"", ...)  returns 0x00 (0000ms, 0542ms total)
T062C 000:558 JLINK_ExecCommand("Device = STM32F103ZE", ...)Device "STM32F103ZE" selected.  returns 0x00 (0000ms, 0542ms total)
T062C 000:558 JLINK_ExecCommand("DisableConnectionTimeout", ...)  returns 0x01 (0000ms, 0542ms total)
T062C 000:558 JLINK_GetHardwareVersion()  returns 0x13880 (0000ms, 0542ms total)
T062C 000:558 JLINK_GetDLLVersion()  returns 51200 (0000ms, 0542ms total)
T062C 000:558 JLINK_GetFirmwareString(...) (0000ms, 0542ms total)
T062C 000:558 JLINK_GetDLLVersion()  returns 51200 (0001ms, 0543ms total)
T062C 000:559 JLINK_GetCompileDateTime() (0000ms, 0543ms total)
T062C 000:559 JLINK_GetFirmwareString(...) (0000ms, 0543ms total)
T062C 000:559 JLINK_GetHardwareVersion()  returns 0x13880 (0000ms, 0543ms total)
T062C 000:559 JLINK_TIF_Select(JLINKARM_TIF_SWD)  returns 0x00 (0004ms, 0547ms total)
T062C 000:563 JLINK_SetSpeed(50000) (0001ms, 0548ms total)
T062C 000:564 JLINK_GetId() >0x108 TIF>Found SWD-DP with ID 0x1BA01477 >0x0D TIF> >0x28 TIF> >0x0D TIF> >0x28 TIF> >0x0D TIF> >0x28 TIF> >0x0D TIF> >0x28 TIF> >0x0D TIF> >0x21 TIF> >0x0D TIF> >0x28 TIF> >0x0D TIF> >0x28 TIF> >0x0D TIF> >0x28 TIF> >0x0D TIF> >0x21 TIF> >0x0D TIF> >0x21 TIF> >0x0D TIF> >0x28 TIF> >0x0D TIF> >0x21 TIF> >0x0D TIF> >0x21 TIF> >0x0D TIF> >0x28 TIF> >0x0D TIF> >0x21 TIF> >0x0D TIF> >0x21 TIF> >0x0D TIF> >0x28 TIF> >0x0D TIF> >0x21 TIF> >0x0D TIF> >0x21 TIF> >0x0D TIF>
 >0x28 TIF> >0x0D TIF> >0x21 TIF> >0x0D TIF> >0x21 TIF> >0x0D TIF> >0x28 TIF> >0x0D TIF> >0x21 TIF> >0x0D TIF> >0x21 TIF> >0x108 TIF>Found SWD-DP with ID 0x1BA01477 >0x0D TIF> >0x28 TIF> >0x0D TIF> >0x28 TIF> >0x0D TIF> >0x28 TIF> >0x0D TIF> >0x28 TIF> >0x0D TIF> >0x21 TIF> >0x0D TIF> >0x28 TIF> >0x0D TIF> >0x28 TIF> >0x0D TIF> >0x21 TIF> >0x0D TIF> >0x21 TIF> >0x0D TIF> >0x21 TIF> >0x0D TIF> >0x28 TIF> >0x0D TIF> >0x28 TIF> >0x0D TIF> >0x28 TIF> >0x0D TIF> >0x21 TIF> >0x0D TIF> >0x21 TIF> >0x0D TIF>
 >0x28 TIF> >0x0D TIF> >0x21 TIF> >0x0D TIF> >0x21 TIF>Found Cortex-M3 r1p1, Little endian. -- CPU_ReadMem(4 bytes @ 0xE000EDF0) -- CPU_ReadMem(4 bytes @ 0xE0002000)FPUnit: 6 code (BP) slots and 2 literal slots -- CPU_ReadMem(4 bytes @ 0xE000EDFC) -- CPU_ReadMem(4 bytes @ 0xE0001000) -- CPU_WriteMem(4 bytes @ 0xE0001000) -- CPU_ReadMem(4 bytes @ 0xE000ED88) -- CPU_WriteMem(4 bytes @ 0xE000ED88) -- CPU_ReadMem(4 bytes @ 0xE000ED88) -- CPU_WriteMem(4 bytes @ 0xE000ED88)CoreSight components:
ROMTbl 0 @ E00FF000 -- CPU_ReadMem(16 bytes @ 0xE00FF000) -- CPU_ReadMem(16 bytes @ 0xE000EFF0) -- CPU_ReadMem(16 bytes @ 0xE000EFE0)ROMTbl 0 [0]: FFF0F000, CID: B105E00D, PID: 001BB000 SCS -- CPU_ReadMem(16 bytes @ 0xE0001FF0) -- CPU_ReadMem(16 bytes @ 0xE0001FE0)ROMTbl 0 [1]: FFF02000, CID: B105E00D, PID: 001BB002 DWT -- CPU_ReadMem(16 bytes @ 0xE0002FF0) -- CPU_ReadMem(16 bytes @ 0xE0002FE0)ROMTbl 0 [2]: FFF03000, CID: B105E00D, PID: 000BB003 FPB -- CPU_ReadMem(16 bytes @ 0xE0000FF0)
 -- CPU_ReadMem(16 bytes @ 0xE0000FE0)ROMTbl 0 [3]: FFF01000, CID: B105E00D, PID: 001BB001 ITM -- CPU_ReadMem(16 bytes @ 0xE00FF010) -- CPU_ReadMem(16 bytes @ 0xE0040FF0) -- CPU_ReadMem(16 bytes @ 0xE0040FE0)ROMTbl 0 [4]: FFF41000, CID: B105900D, PID: 001BB923 TPIU-Lite -- CPU_ReadMem(16 bytes @ 0xE0041FF0) -- CPU_ReadMem(16 bytes @ 0xE0041FE0)ROMTbl 0 [5]: FFF42000, CID: B105900D, PID: 101BB924 ETM-M3 >0x0D TIF> >0x21 TIF>  returns 0x1BA01477 (0119ms, 0667ms total)
T062C 000:683 JLINK_GetDLLVersion()  returns 51200 (0000ms, 0667ms total)
T062C 000:683 JLINK_CORE_GetFound()  returns 0x30000FF (0000ms, 0667ms total)
T062C 000:683 JLINK_GetDebugInfo(0x100) -- Value=0xE00FF000  returns 0x00 (0000ms, 0667ms total)
T062C 000:683 JLINK_GetDebugInfo(0x100) -- Value=0xE00FF000  returns 0x00 (0000ms, 0667ms total)
T062C 000:683 JLINK_GetDebugInfo(0x101) -- Value=0xE0041000  returns 0x00 (0000ms, 0667ms total)
T062C 000:684 JLINK_GetDebugInfo(0x102) -- Value=0x00000000  returns 0x00 (0000ms, 0668ms total)
T062C 000:684 JLINK_GetDebugInfo(0x103) -- Value=0xE0040000  returns 0x00 (0000ms, 0668ms total)
T062C 000:684 JLINK_GetDebugInfo(0x104) -- Value=0xE0000000  returns 0x00 (0000ms, 0668ms total)
T062C 000:684 JLINK_GetDebugInfo(0x105) -- Value=0xE0001000  returns 0x00 (0000ms, 0668ms total)
T062C 000:684 JLINK_GetDebugInfo(0x106) -- Value=0xE0002000  returns 0x00 (0000ms, 0668ms total)
T062C 000:684 JLINK_GetDebugInfo(0x107) -- Value=0xE000E000  returns 0x00 (0000ms, 0668ms total)
T062C 000:684 JLINK_GetDebugInfo(0x10C) -- Value=0xE000EDF0  returns 0x00 (0000ms, 0668ms total)
T062C 000:684 JLINK_ReadMemU32(0xE000ED00, 0x0001 Items, ...) -- CPU is running -- CPU_ReadMem(4 bytes @ 0xE000ED00) - Data: 31 C2 1F 41  returns 0x01 (0001ms, 0669ms total)
T062C 000:685 JLINK_SetResetType(JLINKARM_RESET_TYPE_NORMAL)  returns JLINKARM_RESET_TYPE_NORMAL (0000ms, 0669ms total)
T062C 000:685 JLINK_Reset() -- CPU is running -- CPU_WriteMem(4 bytes @ 0xE000EDF0) -- CPU is running -- CPU_WriteMem(4 bytes @ 0xE000EDFC) >0x35 TIF> -- CPU is running -- CPU_WriteMem(4 bytes @ 0xE000ED0C) -- CPU is running -- CPU_ReadMem(4 bytes @ 0xE000EDF0) -- CPU is running -- CPU_ReadMem(4 bytes @ 0xE000EDF0) -- CPU is running -- CPU_WriteMem(4 bytes @ 0xE000EDF0) -- CPU is running -- CPU_WriteMem(4 bytes @ 0xE000EDFC) -- CPU is running -- CPU_ReadMem(4 bytes @ 0xE000EDF0)
 -- CPU_WriteMem(4 bytes @ 0xE0002000) -- CPU_ReadMem(4 bytes @ 0xE000EDFC) -- CPU_ReadMem(4 bytes @ 0xE0001000) (0023ms, 0692ms total)
T062C 000:708 JLINK_ReadReg(R15 (PC))  returns 0x0800014C (0000ms, 0692ms total)
T062C 000:708 JLINK_ReadReg(XPSR)  returns 0x01000000 (0000ms, 0692ms total)
T062C 000:708 JLINK_Halt()  returns 0x00 (0000ms, 0692ms total)
T062C 000:708 JLINK_IsHalted()  returns TRUE (0000ms, 0692ms total)
T062C 000:708 JLINK_ReadMemU32(0xE000EDF0, 0x0001 Items, ...) -- CPU_ReadMem(4 bytes @ 0xE000EDF0) - Data: 03 00 03 00  returns 0x01 (0001ms, 0693ms total)
T062C 000:709 JLINK_WriteU32(0xE000EDF0, 0xA05F0003) -- CPU_WriteMem(4 bytes @ 0xE000EDF0)  returns 0x00 (0001ms, 0694ms total)
T062C 000:710 JLINK_WriteU32(0xE000EDFC, 0x01000000) -- CPU_WriteMem(4 bytes @ 0xE000EDFC)  returns 0x00 (0001ms, 0695ms total)
T062C 000:711 JLINK_GetHWStatus(...)  returns 0x00 (0001ms, 0696ms total)
T062C 000:712 JLINK_GetNumBPUnits(Type = 0xFFFFFF00)  returns 0x06 (0000ms, 0696ms total)
T062C 000:712 JLINK_GetNumBPUnits(Type = 0xF0)  returns 0x2000 (0000ms, 0696ms total)
T062C 000:712 JLINK_GetNumWPUnits()  returns 0x04 (0000ms, 0696ms total)
T062C 000:712 JLINK_GetSpeed()  returns 0xFA0 (0000ms, 0696ms total)
T062C 000:712 JLINK_ReadMemU32(0xE000E004, 0x0001 Items, ...) -- CPU_ReadMem(4 bytes @ 0xE000E004) - Data: 01 00 00 00  returns 0x01 (0001ms, 0697ms total)
T062C 000:713 JLINK_ReadMemU32(0xE000E004, 0x0001 Items, ...) -- CPU_ReadMem(4 bytes @ 0xE000E004) - Data: 01 00 00 00  returns 0x01 (0001ms, 0698ms total)
T062C 000:714 JLINK_WriteMem(0xE0001000, 0x001C Bytes, ...) - Data: 01 00 00 00 00 00 00 00 00 00 00 00 00 00 00 00 ... -- CPU_WriteMem(28 bytes @ 0xE0001000)  returns 0x1C (0001ms, 0699ms total)
T062C 000:715 JLINK_ReadMem (0xE0001000, 0x001C Bytes, ...) -- CPU_ReadMem(28 bytes @ 0xE0001000) - Data: 01 00 00 40 00 00 00 00 00 00 00 00 00 00 00 00 ...  returns 0x00 (0001ms, 0700ms total)
T062C 000:716 JLINK_ReadReg(R15 (PC))  returns 0x0800014C (0000ms, 0700ms total)
T062C 000:716 JLINK_ReadReg(XPSR)  returns 0x01000000 (0000ms, 0700ms total)
T062C 000:796 JLINK_SetResetType(JLINKARM_RESET_TYPE_NORMAL)  returns JLINKARM_RESET_TYPE_NORMAL (0000ms, 0700ms total)
T062C 000:796 JLINK_Reset() -- CPU_WriteMem(4 bytes @ 0xE000EDF0) -- CPU_WriteMem(4 bytes @ 0xE000EDFC) >0x35 TIF> -- CPU_WriteMem(4 bytes @ 0xE000ED0C) -- CPU_ReadMem(4 bytes @ 0xE000EDF0) -- CPU_ReadMem(4 bytes @ 0xE000EDF0) -- CPU_WriteMem(4 bytes @ 0xE000EDF0) -- CPU_WriteMem(4 bytes @ 0xE000EDFC) -- CPU is running -- CPU_ReadMem(4 bytes @ 0xE000EDF0) -- CPU_WriteMem(4 bytes @ 0xE0002000) -- CPU_ReadMem(4 bytes @ 0xE000EDFC) -- CPU_ReadMem(4 bytes @ 0xE0001000) (0024ms, 0724ms total)
T062C 000:820 JLINK_ReadReg(R15 (PC))  returns 0x0800014C (0000ms, 0724ms total)
T062C 000:820 JLINK_ReadReg(XPSR)  returns 0x01000000 (0000ms, 0724ms total)
T062C 000:820 JLINK_ReadMem (0x0800014C, 0x003C Bytes, ...) -- CPU_ReadMem(128 bytes @ 0x08000140) -- Updating C cache (128 bytes @ 0x08000140) -- Read from C cache (60 bytes @ 0x0800014C) - Data: 06 48 80 47 06 48 00 47 FE E7 FE E7 FE E7 FE E7 ...  returns 0x00 (0002ms, 0726ms total)
T062C 001:761 JLINK_SetResetType(JLINKARM_RESET_TYPE_NORMAL)  returns JLINKARM_RESET_TYPE_NORMAL (0000ms, 0726ms total)
T062C 001:761 JLINK_Reset() -- CPU_WriteMem(4 bytes @ 0xE000EDF0) -- CPU_WriteMem(4 bytes @ 0xE000EDFC) >0x35 TIF> -- CPU_WriteMem(4 bytes @ 0xE000ED0C) -- CPU_ReadMem(4 bytes @ 0xE000EDF0) -- CPU_ReadMem(4 bytes @ 0xE000EDF0) -- CPU_WriteMem(4 bytes @ 0xE000EDF0) -- CPU_WriteMem(4 bytes @ 0xE000EDFC) -- CPU is running -- CPU_ReadMem(4 bytes @ 0xE000EDF0) -- CPU_WriteMem(4 bytes @ 0xE0002000) -- CPU_ReadMem(4 bytes @ 0xE000EDFC) -- CPU_ReadMem(4 bytes @ 0xE0001000) (0024ms, 0750ms total)
T062C 001:785 JLINK_ReadReg(R15 (PC))  returns 0x0800014C (0000ms, 0750ms total)
T062C 001:785 JLINK_ReadReg(XPSR)  returns 0x01000000 (0000ms, 0750ms total)
T062C 001:785 JLINK_ReadMemU32(0xE0001004, 0x0001 Items, ...) -- CPU_ReadMem(4 bytes @ 0xE0001004) - Data: 64 01 00 00  returns 0x01 (0001ms, 0751ms total)
T062C 001:823 JLINK_ReadMem (0x08010000, 0x0004 Bytes, ...) -- CPU_ReadMem(64 bytes @ 0x08010000) -- Updating C cache (64 bytes @ 0x08010000) -- Read from C cache (4 bytes @ 0x08010000) - Data: 20 9D 00 20  returns 0x00 (0001ms, 0752ms total)
T062C 001:824 JLINK_WriteReg(R13 (SP), 0x20009D20)  returns 0x00 (0000ms, 0752ms total)
T062C 001:824 JLINK_ReadReg(R0)  returns 0x00000000 (0000ms, 0752ms total)
T062C 001:824 JLINK_ReadReg(R1)  returns 0x20000424 (0000ms, 0752ms total)
T062C 001:824 JLINK_ReadReg(R2)  returns 0x02020202 (0000ms, 0752ms total)
T062C 001:824 JLINK_ReadReg(R3)  returns 0x03030303 (0000ms, 0752ms total)
T062C 001:824 JLINK_ReadReg(R4)  returns 0x00000000 (0000ms, 0752ms total)
T062C 001:824 JLINK_ReadReg(R5)  returns 0x05050505 (0001ms, 0753ms total)
T062C 001:825 JLINK_ReadReg(R6)  returns 0x06060606 (0000ms, 0753ms total)
T062C 001:825 JLINK_ReadReg(R7)  returns 0x07070707 (0000ms, 0753ms total)
T062C 001:825 JLINK_ReadReg(R8)  returns 0x08080808 (0000ms, 0753ms total)
T062C 001:825 JLINK_ReadReg(R9)  returns 0x09090909 (0000ms, 0753ms total)
T062C 001:825 JLINK_ReadReg(R10)  returns 0x10101010 (0000ms, 0753ms total)
T062C 001:825 JLINK_ReadReg(R11)  returns 0x11111111 (0000ms, 0753ms total)
T062C 001:825 JLINK_ReadReg(R12)  returns 0x12121212 (0000ms, 0753ms total)
T062C 001:825 JLINK_ReadReg(R13 (SP))  returns 0x20009D20 (0000ms, 0753ms total)
T062C 001:825 JLINK_ReadReg(R14)  returns 0xFFFFFFFF (0000ms, 0753ms total)
T062C 001:825 JLINK_ReadReg(R15 (PC))  returns 0x0800014C (0000ms, 0753ms total)
T062C 001:825 JLINK_ReadReg(XPSR)  returns 0x01000000 (0000ms, 0753ms total)
T062C 001:825 JLINK_ReadReg(MSP)  returns 0x20009D20 (0000ms, 0753ms total)
T062C 001:825 JLINK_ReadReg(PSP)  returns 0x20006604 (0000ms, 0753ms total)
T062C 001:825 JLINK_ReadReg(CFBP)  returns 0x00000000 (0000ms, 0753ms total)
T062C 001:825 JLINK_ReadMem (0x08010004, 0x0004 Bytes, ...) -- Read from C cache (4 bytes @ 0x08010004) - Data: F9 01 01 08  returns 0x00 (0000ms, 0753ms total)
T062C 001:825 JLINK_WriteReg(R15 (PC), 0x080101F8)  returns 0x00 (0000ms, 0753ms total)
T062C 001:825 JLINK_ReadReg(R0)  returns 0x00000000 (0000ms, 0753ms total)
T062C 001:825 JLINK_ReadReg(R1)  returns 0x20000424 (0000ms, 0753ms total)
T062C 001:825 JLINK_ReadReg(R2)  returns 0x02020202 (0000ms, 0753ms total)
T062C 001:825 JLINK_ReadReg(R3)  returns 0x03030303 (0000ms, 0753ms total)
T062C 001:825 JLINK_ReadReg(R4)  returns 0x00000000 (0000ms, 0753ms total)
T062C 001:825 JLINK_ReadReg(R5)  returns 0x05050505 (0000ms, 0753ms total)
T062C 001:825 JLINK_ReadReg(R6)  returns 0x06060606 (0000ms, 0753ms total)
T062C 001:825 JLINK_ReadReg(R7)  returns 0x07070707 (0000ms, 0753ms total)
T062C 001:825 JLINK_ReadReg(R8)  returns 0x08080808 (0000ms, 0753ms total)
T062C 001:825 JLINK_ReadReg(R9)  returns 0x09090909 (0000ms, 0753ms total)
T062C 001:825 JLINK_ReadReg(R10)  returns 0x10101010 (0000ms, 0753ms total)
T062C 001:825 JLINK_ReadReg(R11)  returns 0x11111111 (0000ms, 0753ms total)
T062C 001:825 JLINK_ReadReg(R12)  returns 0x12121212 (0000ms, 0753ms total)
T062C 001:825 JLINK_ReadReg(R13 (SP))  returns 0x20009D20 (0001ms, 0754ms total)
T062C 001:826 JLINK_ReadReg(R14)  returns 0xFFFFFFFF (0000ms, 0754ms total)
T062C 001:826 JLINK_ReadReg(R15 (PC))  returns 0x080101F8 (0000ms, 0754ms total)
T062C 001:826 JLINK_ReadReg(XPSR)  returns 0x01000000 (0000ms, 0754ms total)
T062C 001:826 JLINK_ReadReg(MSP)  returns 0x20009D20 (0000ms, 0754ms total)
T062C 001:826 JLINK_ReadReg(PSP)  returns 0x20006604 (0000ms, 0754ms total)
T062C 001:826 JLINK_ReadReg(CFBP)  returns 0x00000000 (0000ms, 0754ms total)
T062C 001:836 JLINK_ReadMem (0x20000428, 0x0004 Bytes, ...) -- CPU_ReadMem(64 bytes @ 0x20000400) -- Updating C cache (64 bytes @ 0x20000400) -- Read from C cache (4 bytes @ 0x20000428) - Data: 04 67 00 20  returns 0x00 (0001ms, 0755ms total)
T062C 001:838 JLINK_ReadMem (0x20000434, 0x0004 Bytes, ...) -- Read from C cache (4 bytes @ 0x20000434) - Data: 50 69 00 20  returns 0x00 (0001ms, 0756ms total)
T062C 001:843 JLINK_ReadMem (0x20002E10, 0x0004 Bytes, ...) -- CPU_ReadMem(64 bytes @ 0x20002E00) -- Updating C cache (64 bytes @ 0x20002E00) -- Read from C cache (4 bytes @ 0x20002E10) - Data: 01 00 00 00  returns 0x00 (0001ms, 0757ms total)
T062C 001:846 JLINK_ReadMem (0x20002E14, 0x0004 Bytes, ...) -- Read from C cache (4 bytes @ 0x20002E14) - Data: 00 00 00 00  returns 0x00 (0000ms, 0757ms total)
T062C 001:847 JLINK_ReadMem (0x20002DAA, 0x0002 Bytes, ...) -- CPU_ReadMem(64 bytes @ 0x20002D80) -- Updating C cache (64 bytes @ 0x20002D80) -- Read from C cache (2 bytes @ 0x20002DAA) - Data: 00 00  returns 0x00 (0001ms, 0758ms total)
T062C 001:849 JLINK_ReadMem (0x2000031C, 0x0002 Bytes, ...) -- CPU_ReadMem(64 bytes @ 0x20000300) -- Updating C cache (64 bytes @ 0x20000300) -- Read from C cache (2 bytes @ 0x2000031C) - Data: 0F 00  returns 0x00 (0001ms, 0759ms total)
T062C 001:852 JLINK_ReadMem (0x200003B8, 0x0004 Bytes, ...) -- CPU_ReadMem(64 bytes @ 0x20000380) -- Updating C cache (64 bytes @ 0x20000380) -- Read from C cache (4 bytes @ 0x200003B8) - Data: 00 00 00 00  returns 0x00 (0002ms, 0761ms total)
T062C 001:855 JLINK_ReadMem (0x20005FF0, 0x0010 Bytes, ...) -- CPU_ReadMem(64 bytes @ 0x20005FC0) -- Updating C cache (64 bytes @ 0x20005FC0) -- Read from C cache (16 bytes @ 0x20005FF0) - Data: 00 00 00 00 00 00 00 00 00 00 00 00 00 00 00 00  returns 0x00 (0002ms, 0763ms total)
T062C 001:857 JLINK_ReadMem (0x20006000, 0x0010 Bytes, ...) -- CPU_ReadMem(64 bytes @ 0x20006000) -- Updating C cache (64 bytes @ 0x20006000) -- Read from C cache (16 bytes @ 0x20006000) - Data: 00 00 00 00 00 00 00 00 00 00 00 00 00 00 00 00  returns 0x00 (0001ms, 0764ms total)
T062C 001:858 JLINK_ReadMem (0x20001490, 0x0020 Bytes, ...) -- CPU_ReadMem(64 bytes @ 0x20001480) -- Updating C cache (64 bytes @ 0x20001480) -- Read from C cache (32 bytes @ 0x20001490) - Data: 02 03 01 40 00 02 C4 10 00 00 00 00 00 00 00 00 ...  returns 0x00 (0002ms, 0766ms total)
T0974 001:889 JLINK_SetBPEx(Addr = 0x0801EE74, Type = 0xFFFFFFF2)  returns 0x00000001 (0000ms, 0766ms total)
T0974 001:889 JLINK_SetBPEx(Addr = 0x08015D3C, Type = 0xFFFFFFF2)  returns 0x00000002 (0000ms, 0766ms total)
T0974 001:889 JLINK_Go() -- CPU_WriteMem(4 bytes @ 0xE0002000) -- CPU_WriteMem(4 bytes @ 0xE0002000) -- CPU_ReadMem(4 bytes @ 0xE0001000) -- CPU_WriteMem(4 bytes @ 0xE0002008) -- CPU_WriteMem(4 bytes @ 0xE000200C) -- CPU_WriteMem(4 bytes @ 0xE0002010) -- CPU_WriteMem(4 bytes @ 0xE0002014) -- CPU_WriteMem(4 bytes @ 0xE0002018) -- CPU_WriteMem(4 bytes @ 0xE000201C) -- CPU_WriteMem(4 bytes @ 0xE0001004) (0011ms, 0777ms total)
T0974 002:000 JLINK_IsHalted()  returns TRUE (0003ms, 0780ms total)
T0974 002:003 JLINK_Halt()  returns 0x00 (0000ms, 0777ms total)
T0974 002:003 JLINK_IsHalted()  returns TRUE (0000ms, 0777ms total)
T0974 002:003 JLINK_IsHalted()  returns TRUE (0000ms, 0777ms total)
T0974 002:003 JLINK_IsHalted()  returns TRUE (0000ms, 0777ms total)
T0974 002:003 JLINK_ReadReg(R15 (PC))  returns 0x0801EE74 (0000ms, 0777ms total)
T0974 002:003 JLINK_ReadReg(XPSR)  returns 0x61000000 (0000ms, 0777ms total)
T0974 002:003 JLINK_ClrBPEx(BPHandle = 0x00000001)  returns 0x00 (0000ms, 0777ms total)
T0974 002:003 JLINK_ClrBPEx(BPHandle = 0x00000002)  returns 0x00 (0000ms, 0777ms total)
T0974 002:003 JLINK_ReadMemU32(0xE000ED30, 0x0001 Items, ...) -- CPU_ReadMem(4 bytes @ 0xE000ED30) - Data: 03 00 00 00  returns 0x01 (0001ms, 0778ms total)
T0974 002:004 JLINK_ReadMemU32(0xE0001028, 0x0001 Items, ...) -- CPU_ReadMem(4 bytes @ 0xE0001028) - Data: 00 00 00 00  returns 0x01 (0001ms, 0779ms total)
T0974 002:005 JLINK_ReadMemU32(0xE0001038, 0x0001 Items, ...) -- CPU_ReadMem(4 bytes @ 0xE0001038) - Data: 00 02 00 00  returns 0x01 (0001ms, 0780ms total)
T0974 002:006 JLINK_ReadMemU32(0xE0001048, 0x0001 Items, ...) -- CPU_ReadMem(4 bytes @ 0xE0001048) - Data: 00 00 00 00  returns 0x01 (0001ms, 0781ms total)
T0974 002:007 JLINK_ReadMemU32(0xE0001058, 0x0001 Items, ...) -- CPU_ReadMem(4 bytes @ 0xE0001058) - Data: 00 00 00 00  returns 0x01 (0001ms, 0782ms total)
T0974 002:008 JLINK_ReadReg(R0)  returns 0x0801EE75 (0000ms, 0782ms total)
T0974 002:008 JLINK_ReadReg(R1)  returns 0x20009D20 (0000ms, 0782ms total)
T0974 002:008 JLINK_ReadReg(R2)  returns 0x00000000 (0000ms, 0782ms total)
T0974 002:008 JLINK_ReadReg(R3)  returns 0x08018D95 (0000ms, 0782ms total)
T0974 002:008 JLINK_ReadReg(R4)  returns 0x08021C90 (0000ms, 0782ms total)
T0974 002:008 JLINK_ReadReg(R5)  returns 0x08021C90 (0000ms, 0782ms total)
T0974 002:008 JLINK_ReadReg(R6)  returns 0x06060606 (0000ms, 0782ms total)
T0974 002:008 JLINK_ReadReg(R7)  returns 0x07070707 (0000ms, 0782ms total)
T0974 002:008 JLINK_ReadReg(R8)  returns 0x08080808 (0000ms, 0782ms total)
T0974 002:008 JLINK_ReadReg(R9)  returns 0x09090909 (0000ms, 0782ms total)
T0974 002:008 JLINK_ReadReg(R10)  returns 0x10101010 (0000ms, 0782ms total)
T0974 002:008 JLINK_ReadReg(R11)  returns 0x11111111 (0000ms, 0782ms total)
T0974 002:008 JLINK_ReadReg(R12)  returns 0x12121212 (0000ms, 0782ms total)
T0974 002:008 JLINK_ReadReg(R13 (SP))  returns 0x20009D20 (0000ms, 0782ms total)
T0974 002:008 JLINK_ReadReg(R14)  returns 0x08010765 (0000ms, 0782ms total)
T0974 002:008 JLINK_ReadReg(R15 (PC))  returns 0x0801EE74 (0000ms, 0782ms total)
T0974 002:008 JLINK_ReadReg(XPSR)  returns 0x61000000 (0000ms, 0782ms total)
T0974 002:008 JLINK_ReadReg(MSP)  returns 0x20009D20 (0000ms, 0782ms total)
T0974 002:008 JLINK_ReadReg(PSP)  returns 0x20006604 (0000ms, 0782ms total)
T0974 002:008 JLINK_ReadReg(CFBP)  returns 0x00000000 (0000ms, 0782ms total)
T062C 002:009 JLINK_ReadMem (0x20009D18, 0x0001 Bytes, ...) -- CPU_ReadMem(64 bytes @ 0x20009D00) -- Updating C cache (64 bytes @ 0x20009D00) -- Read from C cache (1 bytes @ 0x20009D18) - Data: 00  returns 0x00 (0001ms, 0783ms total)
T062C 002:013 JLINK_ReadMemU32(0xE0001004, 0x0001 Items, ...) -- CPU_ReadMem(4 bytes @ 0xE0001004) - Data: FB 96 01 00  returns 0x01 (0002ms, 0785ms total)
T062C 002:015 JLINK_ReadMem (0x20000428, 0x0004 Bytes, ...) -- CPU_ReadMem(64 bytes @ 0x20000400) -- Updating C cache (64 bytes @ 0x20000400) -- Read from C cache (4 bytes @ 0x20000428) - Data: 00 00 00 00  returns 0x00 (0001ms, 0786ms total)
T062C 002:016 JLINK_ReadMem (0x20000434, 0x0004 Bytes, ...) -- Read from C cache (4 bytes @ 0x20000434) - Data: 00 00 00 00  returns 0x00 (0000ms, 0786ms total)
T062C 002:016 JLINK_ReadMem (0x20002E10, 0x0004 Bytes, ...) -- CPU_ReadMem(64 bytes @ 0x20002E00) -- Updating C cache (64 bytes @ 0x20002E00) -- Read from C cache (4 bytes @ 0x20002E10) - Data: 00 00 00 00  returns 0x00 (0001ms, 0787ms total)
T062C 002:017 JLINK_ReadMem (0x20002E14, 0x0004 Bytes, ...) -- Read from C cache (4 bytes @ 0x20002E14) - Data: 00 00 00 00  returns 0x00 (0000ms, 0787ms total)
T062C 002:017 JLINK_ReadMem (0x20002DAA, 0x0002 Bytes, ...) -- CPU_ReadMem(64 bytes @ 0x20002D80) -- Updating C cache (64 bytes @ 0x20002D80) -- Read from C cache (2 bytes @ 0x20002DAA) - Data: 00 00  returns 0x00 (0001ms, 0788ms total)
T062C 002:018 JLINK_ReadMem (0x2000031C, 0x0002 Bytes, ...) -- CPU_ReadMem(64 bytes @ 0x20000300) -- Updating C cache (64 bytes @ 0x20000300) -- Read from C cache (2 bytes @ 0x2000031C) - Data: 00 00  returns 0x00 (0001ms, 0789ms total)
T062C 002:020 JLINK_ReadMem (0x200003B8, 0x0004 Bytes, ...) -- CPU_ReadMem(64 bytes @ 0x20000380) -- Updating C cache (64 bytes @ 0x20000380) -- Read from C cache (4 bytes @ 0x200003B8) - Data: 00 00 00 00  returns 0x00 (0001ms, 0790ms total)
T062C 002:021 JLINK_ReadMem (0x20005FF0, 0x0010 Bytes, ...) -- CPU_ReadMem(64 bytes @ 0x20005FC0) -- Updating C cache (64 bytes @ 0x20005FC0) -- Read from C cache (16 bytes @ 0x20005FF0) - Data: 00 00 00 00 00 00 00 00 00 00 00 00 00 00 00 00  returns 0x00 (0001ms, 0791ms total)
T062C 002:022 JLINK_ReadMem (0x20006000, 0x0010 Bytes, ...) -- CPU_ReadMem(64 bytes @ 0x20006000) -- Updating C cache (64 bytes @ 0x20006000) -- Read from C cache (16 bytes @ 0x20006000) - Data: 00 00 00 00 00 00 00 00 00 00 00 00 00 00 00 00  returns 0x00 (0001ms, 0792ms total)
T062C 002:023 JLINK_ReadMem (0x20001490, 0x0020 Bytes, ...) -- CPU_ReadMem(64 bytes @ 0x20001480) -- Updating C cache (64 bytes @ 0x20001480) -- Read from C cache (32 bytes @ 0x20001490) - Data: 00 00 00 00 00 00 00 00 00 00 00 00 00 00 00 00 ...  returns 0x00 (0001ms, 0793ms total)
T062C 002:026 JLINK_ReadMem (0x0801ED74, 0x003C Bytes, ...) -- CPU_ReadMem(128 bytes @ 0x0801ED40) -- Updating C cache (128 bytes @ 0x0801ED40) -- Read from C cache (60 bytes @ 0x0801ED74) - Data: 00 E0 00 20 24 49 08 60 64 20 FD F7 BF F9 24 48 ...  returns 0x00 (0002ms, 0795ms total)
T062C 002:028 JLINK_ReadMem (0x0801EDB0, 0x003C Bytes, ...) -- CPU_ReadMem(64 bytes @ 0x0801EDC0) -- Updating C cache (64 bytes @ 0x0801EDC0) -- Read from C cache (60 bytes @ 0x0801EDB0) - Data: A7 F9 18 48 D0 F8 A0 01 08 B9 01 20 00 E0 00 20 ...  returns 0x00 (0001ms, 0796ms total)
T062C 002:029 JLINK_ReadMem (0x0801EDEC, 0x003C Bytes, ...) -- CPU_ReadMem(64 bytes @ 0x0801EE00) -- Updating C cache (64 bytes @ 0x0801EE00) -- Read from C cache (60 bytes @ 0x0801EDEC) - Data: 97 E7 00 00 68 65 6C 6C 6F 77 6F 72 6C 64 6E 69 ...  returns 0x00 (0001ms, 0797ms total)
T062C 002:030 JLINK_ReadMem (0x0801EE28, 0x003C Bytes, ...) -- CPU_ReadMem(64 bytes @ 0x0801EE40) -- Updating C cache (64 bytes @ 0x0801EE40) -- Read from C cache (60 bytes @ 0x0801EE28) - Data: 39 FD 10 20 8D F8 03 00 03 20 8D F8 02 00 4F F4 ...  returns 0x00 (0001ms, 0798ms total)
T062C 002:031 JLINK_ReadMem (0x0801EE64, 0x003C Bytes, ...) -- CPU_ReadMem(64 bytes @ 0x0801EE80) -- Updating C cache (64 bytes @ 0x0801EE80) -- Read from C cache (60 bytes @ 0x0801EE64) - Data: 00 20 02 49 08 60 08 BD 00 0C 01 40 A0 81 21 42 ...  returns 0x00 (0001ms, 0799ms total)
T062C 006:399 JLINK_ReadMem (0x0801FF48, 0x003C Bytes, ...) -- CPU_ReadMem(128 bytes @ 0x0801FF40) -- Updating C cache (128 bytes @ 0x0801FF40) -- Read from C cache (60 bytes @ 0x0801FF48) - Data: 13 49 08 68 89 88 09 04 41 EA 10 41 03 04 11 48 ...  returns 0x00 (0001ms, 0800ms total)
T0974 011:032 JLINK_SetBPEx(Addr = 0x08015D3C, Type = 0xFFFFFFF2)  returns 0x00000003 (0000ms, 0800ms total)
T0974 011:032 JLINK_SetBPEx(Addr = 0x0801FF48, Type = 0xFFFFFFF2)  returns 0x00000004 (0000ms, 0800ms total)
T0974 011:032 JLINK_Go() -- CPU_WriteMem(4 bytes @ 0xE0002000) -- CPU_WriteMem(4 bytes @ 0xE0002000) -- CPU_ReadMem(4 bytes @ 0xE0001000) -- CPU_WriteMem(4 bytes @ 0xE0002008) -- CPU_WriteMem(4 bytes @ 0xE000200C) (0007ms, 0807ms total)
T0974 011:139 JLINK_IsHalted()  returns FALSE (0001ms, 0808ms total)
T0974 011:240 JLINK_IsHalted()  returns FALSE (0001ms, 0808ms total)
T0974 011:341 JLINK_IsHalted()  returns TRUE (0003ms, 0810ms total)
T0974 011:344 JLINK_Halt()  returns 0x00 (0000ms, 0807ms total)
T0974 011:344 JLINK_IsHalted()  returns TRUE (0000ms, 0807ms total)
T0974 011:344 JLINK_IsHalted()  returns TRUE (0000ms, 0807ms total)
T0974 011:344 JLINK_IsHalted()  returns TRUE (0000ms, 0807ms total)
T0974 011:344 JLINK_ReadReg(R15 (PC))  returns 0x0801FF48 (0000ms, 0807ms total)
T0974 011:344 JLINK_ReadReg(XPSR)  returns 0x0100001B (0000ms, 0807ms total)
T0974 011:344 JLINK_ClrBPEx(BPHandle = 0x00000003)  returns 0x00 (0000ms, 0807ms total)
T0974 011:344 JLINK_ClrBPEx(BPHandle = 0x00000004)  returns 0x00 (0000ms, 0807ms total)
T0974 011:344 JLINK_ReadMemU32(0xE000ED30, 0x0001 Items, ...) -- CPU_ReadMem(4 bytes @ 0xE000ED30) - Data: 03 00 00 00  returns 0x01 (0001ms, 0808ms total)
T0974 011:345 JLINK_ReadMemU32(0xE0001028, 0x0001 Items, ...) -- CPU_ReadMem(4 bytes @ 0xE0001028) - Data: 00 00 00 00  returns 0x01 (0001ms, 0809ms total)
T0974 011:346 JLINK_ReadMemU32(0xE0001038, 0x0001 Items, ...) -- CPU_ReadMem(4 bytes @ 0xE0001038) - Data: 00 02 00 00  returns 0x01 (0001ms, 0810ms total)
T0974 011:347 JLINK_ReadMemU32(0xE0001048, 0x0001 Items, ...) -- CPU_ReadMem(4 bytes @ 0xE0001048) - Data: 00 00 00 00  returns 0x01 (0001ms, 0811ms total)
T0974 011:348 JLINK_ReadMemU32(0xE0001058, 0x0001 Items, ...) -- CPU_ReadMem(4 bytes @ 0xE0001058) - Data: 00 00 00 00  returns 0x01 (0001ms, 0812ms total)
T0974 011:349 JLINK_ReadReg(R0)  returns 0x00000FF0 (0000ms, 0812ms total)
T0974 011:349 JLINK_ReadReg(R1)  returns 0x00010000 (0000ms, 0812ms total)
T0974 011:349 JLINK_ReadReg(R2)  returns 0xFFFFFFFE (0000ms, 0812ms total)
T0974 011:349 JLINK_ReadReg(R3)  returns 0x00000001 (0000ms, 0812ms total)
T0974 011:349 JLINK_ReadReg(R4)  returns 0x00010FF0 (0000ms, 0812ms total)
T0974 011:349 JLINK_ReadReg(R5)  returns 0x0000000A (0000ms, 0812ms total)
T0974 011:349 JLINK_ReadReg(R6)  returns 0x06060606 (0000ms, 0812ms total)
T0974 011:349 JLINK_ReadReg(R7)  returns 0x07070707 (0000ms, 0812ms total)
T0974 011:349 JLINK_ReadReg(R8)  returns 0x08080808 (0000ms, 0812ms total)
T0974 011:349 JLINK_ReadReg(R9)  returns 0x09090909 (0000ms, 0812ms total)
T0974 011:349 JLINK_ReadReg(R10)  returns 0x10101010 (0000ms, 0812ms total)
T0974 011:349 JLINK_ReadReg(R11)  returns 0x11111111 (0000ms, 0812ms total)
T0974 011:349 JLINK_ReadReg(R12)  returns 0x12121212 (0000ms, 0812ms total)
T0974 011:349 JLINK_ReadReg(R13 (SP))  returns 0x20009CE8 (0000ms, 0812ms total)
T0974 011:349 JLINK_ReadReg(R14)  returns 0x0801120F (0000ms, 0812ms total)
T0974 011:349 JLINK_ReadReg(R15 (PC))  returns 0x0801FF48 (0000ms, 0812ms total)
T0974 011:349 JLINK_ReadReg(XPSR)  returns 0x0100001B (0000ms, 0812ms total)
T0974 011:349 JLINK_ReadReg(MSP)  returns 0x20009CE8 (0000ms, 0812ms total)
T0974 011:349 JLINK_ReadReg(PSP)  returns 0x20000CE0 (0000ms, 0812ms total)
T0974 011:349 JLINK_ReadReg(CFBP)  returns 0x00000000 (0000ms, 0812ms total)
T062C 011:350 JLINK_ReadMem (0x20009CEC, 0x0004 Bytes, ...) -- CPU_ReadMem(64 bytes @ 0x20009CC0) -- Updating C cache (64 bytes @ 0x20009CC0) -- Read from C cache (4 bytes @ 0x20009CEC) - Data: FD FF FF FF  returns 0x00 (0001ms, 0813ms total)
T062C 011:351 JLINK_ReadMem (0x20000CF8, 0x0004 Bytes, ...) -- CPU_ReadMem(64 bytes @ 0x20000CC0) -- Updating C cache (64 bytes @ 0x20000CC0) -- Read from C cache (4 bytes @ 0x20000CF8) - Data: 90 88 01 08  returns 0x00 (0001ms, 0814ms total)
T062C 011:352 JLINK_ReadMem (0x20000CFC, 0x0004 Bytes, ...) -- Read from C cache (4 bytes @ 0x20000CFC) - Data: 00 00 00 81  returns 0x00 (0000ms, 0814ms total)
T062C 011:352 JLINK_ReadMem (0x20000CF4, 0x0004 Bytes, ...) -- Read from C cache (4 bytes @ 0x20000CF4) - Data: E5 0D 02 08  returns 0x00 (0000ms, 0814ms total)
T062C 011:352 JLINK_ReadMem (0xE000ED28, 0x0004 Bytes, ...) -- CPU_ReadMem(4 bytes @ 0xE000ED28) - Data: 00 00 00 00  returns 0x00 (0001ms, 0815ms total)
T062C 011:359 JLINK_ReadMemU32(0xE0001004, 0x0001 Items, ...) -- CPU_ReadMem(4 bytes @ 0xE0001004) - Data: 4A E0 18 01  returns 0x01 (0002ms, 0817ms total)
T062C 011:361 JLINK_ReadMem (0x20000428, 0x0004 Bytes, ...) -- CPU_ReadMem(64 bytes @ 0x20000400) -- Updating C cache (64 bytes @ 0x20000400) -- Read from C cache (4 bytes @ 0x20000428) - Data: 54 68 00 20  returns 0x00 (0001ms, 0818ms total)
T062C 011:362 JLINK_ReadMem (0x20000434, 0x0004 Bytes, ...) -- Read from C cache (4 bytes @ 0x20000434) - Data: 50 69 00 20  returns 0x00 (0000ms, 0818ms total)
T062C 011:362 JLINK_ReadMem (0x20002E10, 0x0004 Bytes, ...) -- CPU_ReadMem(64 bytes @ 0x20002E00) -- Updating C cache (64 bytes @ 0x20002E00) -- Read from C cache (4 bytes @ 0x20002E10) - Data: 00 00 00 00  returns 0x00 (0002ms, 0820ms total)
T062C 011:364 JLINK_ReadMem (0x20002E14, 0x0004 Bytes, ...) -- Read from C cache (4 bytes @ 0x20002E14) - Data: 00 00 00 00  returns 0x00 (0000ms, 0820ms total)
T062C 011:364 JLINK_ReadMem (0x20002DAA, 0x0002 Bytes, ...) -- CPU_ReadMem(64 bytes @ 0x20002D80) -- Updating C cache (64 bytes @ 0x20002D80) -- Read from C cache (2 bytes @ 0x20002DAA) - Data: 00 00  returns 0x00 (0001ms, 0821ms total)
T062C 011:365 JLINK_ReadMem (0x2000031C, 0x0002 Bytes, ...) -- CPU_ReadMem(64 bytes @ 0x20000300) -- Updating C cache (64 bytes @ 0x20000300) -- Read from C cache (2 bytes @ 0x2000031C) - Data: 00 00  returns 0x00 (0001ms, 0822ms total)
T062C 011:366 JLINK_ReadMem (0x200003B8, 0x0004 Bytes, ...) -- CPU_ReadMem(64 bytes @ 0x20000380) -- Updating C cache (64 bytes @ 0x20000380) -- Read from C cache (4 bytes @ 0x200003B8) - Data: 00 00 00 00  returns 0x00 (0001ms, 0823ms total)
T062C 011:367 JLINK_ReadMem (0x20005FF0, 0x0010 Bytes, ...) -- CPU_ReadMem(64 bytes @ 0x20005FC0) -- Updating C cache (64 bytes @ 0x20005FC0) -- Read from C cache (16 bytes @ 0x20005FF0) - Data: 00 00 00 00 00 00 00 00 00 00 00 00 00 00 00 00  returns 0x00 (0001ms, 0824ms total)
T062C 011:368 JLINK_ReadMem (0x20006000, 0x0010 Bytes, ...) -- CPU_ReadMem(64 bytes @ 0x20006000) -- Updating C cache (64 bytes @ 0x20006000) -- Read from C cache (16 bytes @ 0x20006000) - Data: 00 00 00 00 00 00 00 00 00 00 00 00 00 00 00 00  returns 0x00 (0001ms, 0825ms total)
T062C 011:369 JLINK_ReadMem (0x20001490, 0x0020 Bytes, ...) -- CPU_ReadMem(64 bytes @ 0x20001480) -- Updating C cache (64 bytes @ 0x20001480) -- Read from C cache (32 bytes @ 0x20001490) - Data: 02 03 01 EF 00 0E F4 34 02 03 01 EF 00 0E F4 34 ...  returns 0x00 (0002ms, 0827ms total)
T062C 012:727 JLINK_ReadMem (0x200002B0, 0x0008 Bytes, ...) -- CPU_ReadMem(64 bytes @ 0x20000280) -- Updating C cache (64 bytes @ 0x20000280) -- Read from C cache (8 bytes @ 0x200002B0) - Data: 00 00 00 00 00 00 00 00  returns 0x00 (0001ms, 0828ms total)
T062C 016:502 JLINK_ReadMem (0x0801FF64, 0x003C Bytes, ...) -- CPU_ReadMem(128 bytes @ 0x0801FF40) -- Updating C cache (128 bytes @ 0x0801FF40) -- Read from C cache (60 bytes @ 0x0801FF64) - Data: 0E 48 01 68 0E 48 00 68 08 1A 0E 49 08 80 0B 49 ...  returns 0x00 (0002ms, 0830ms total)
T062C 017:193 JLINK_ReadMem (0x2000032C, 0x0002 Bytes, ...) -- Read from C cache (2 bytes @ 0x2000032C) - Data: 00 00  returns 0x00 (0000ms, 0830ms total)
T062C 019:391 JLINK_ReadMem (0x200002A8, 0x0008 Bytes, ...) -- Read from C cache (8 bytes @ 0x200002A8) - Data: 01 00 00 00 00 00 00 00  returns 0x00 (0000ms, 0830ms total)
T062C 022:071 JLINK_ReadMem (0x0801FF48, 0x003C Bytes, ...) -- Read from C cache (60 bytes @ 0x0801FF48) - Data: 13 49 08 68 89 88 09 04 41 EA 10 41 03 04 11 48 ...  returns 0x00 (0000ms, 0830ms total)
T0974 044:591 JLINK_Step() -- Read from C cache (2 bytes @ 0x0801FF48) -- CPU_ReadMem(4 bytes @ 0xE000ED18) -- CPU_WriteMem(4 bytes @ 0xE000ED18) -- CPU_ReadMem(4 bytes @ 0xE000ED18) -- CPU_WriteMem(4 bytes @ 0xE000ED18) -- Read from C cache (4 bytes @ 0x0801FF98) -- Simulated  returns 0x00 (0005ms, 0835ms total)
T0974 044:596 JLINK_ReadReg(R15 (PC))  returns 0x0801FF4A (0000ms, 0835ms total)
T0974 044:596 JLINK_ReadReg(XPSR)  returns 0x0100001B (0000ms, 0835ms total)
T0974 044:596 JLINK_SetBPEx(Addr = 0x08015D3C, Type = 0xFFFFFFF2)  returns 0x00000005 (0000ms, 0835ms total)
T0974 044:596 JLINK_SetBPEx(Addr = 0x0801FF48, Type = 0xFFFFFFF2)  returns 0x00000006 (0000ms, 0835ms total)
T0974 044:596 JLINK_Go() -- CPU_WriteMem(4 bytes @ 0xE0002000) -- CPU_WriteMem(4 bytes @ 0xE0002000) -- CPU_ReadMem(4 bytes @ 0xE0001000) -- CPU_WriteMem(4 bytes @ 0xE0001004) (0006ms, 0841ms total)
T0974 044:702 JLINK_IsHalted()  returns TRUE (0003ms, 0844ms total)
T0974 044:705 JLINK_Halt()  returns 0x00 (0000ms, 0841ms total)
T0974 044:705 JLINK_IsHalted()  returns TRUE (0000ms, 0841ms total)
T0974 044:705 JLINK_IsHalted()  returns TRUE (0000ms, 0841ms total)
T0974 044:705 JLINK_IsHalted()  returns TRUE (0000ms, 0841ms total)
T0974 044:705 JLINK_ReadReg(R15 (PC))  returns 0x0801FF48 (0000ms, 0841ms total)
T0974 044:705 JLINK_ReadReg(XPSR)  returns 0x0100001B (0000ms, 0841ms total)
T0974 044:705 JLINK_ClrBPEx(BPHandle = 0x00000005)  returns 0x00 (0000ms, 0841ms total)
T0974 044:705 JLINK_ClrBPEx(BPHandle = 0x00000006)  returns 0x00 (0000ms, 0841ms total)
T0974 044:705 JLINK_ReadMemU32(0xE000ED30, 0x0001 Items, ...) -- CPU_ReadMem(4 bytes @ 0xE000ED30) - Data: 03 00 00 00  returns 0x01 (0001ms, 0842ms total)
T0974 044:706 JLINK_ReadMemU32(0xE0001028, 0x0001 Items, ...) -- CPU_ReadMem(4 bytes @ 0xE0001028) - Data: 00 00 00 00  returns 0x01 (0001ms, 0843ms total)
T0974 044:707 JLINK_ReadMemU32(0xE0001038, 0x0001 Items, ...) -- CPU_ReadMem(4 bytes @ 0xE0001038) - Data: 00 02 00 00  returns 0x01 (0001ms, 0844ms total)
T0974 044:708 JLINK_ReadMemU32(0xE0001048, 0x0001 Items, ...) -- CPU_ReadMem(4 bytes @ 0xE0001048) - Data: 00 00 00 00  returns 0x01 (0001ms, 0845ms total)
T0974 044:709 JLINK_ReadMemU32(0xE0001058, 0x0001 Items, ...) -- CPU_ReadMem(4 bytes @ 0xE0001058) - Data: 00 00 00 00  returns 0x01 (0001ms, 0846ms total)
T0974 044:710 JLINK_ReadReg(R0)  returns 0x00005641 (0000ms, 0846ms total)
T0974 044:710 JLINK_ReadReg(R1)  returns 0x00020000 (0000ms, 0846ms total)
T0974 044:710 JLINK_ReadReg(R2)  returns 0x00000002 (0000ms, 0846ms total)
T0974 044:710 JLINK_ReadReg(R3)  returns 0xFFFFFFFD (0000ms, 0846ms total)
T0974 044:710 JLINK_ReadReg(R4)  returns 0x00025641 (0000ms, 0846ms total)
T0974 044:710 JLINK_ReadReg(R5)  returns 0x00000007 (0000ms, 0846ms total)
T0974 044:710 JLINK_ReadReg(R6)  returns 0x06060606 (0000ms, 0846ms total)
T0974 044:710 JLINK_ReadReg(R7)  returns 0x07070707 (0000ms, 0846ms total)
T0974 044:710 JLINK_ReadReg(R8)  returns 0x08080808 (0000ms, 0846ms total)
T0974 044:710 JLINK_ReadReg(R9)  returns 0x09090909 (0000ms, 0846ms total)
T0974 044:710 JLINK_ReadReg(R10)  returns 0x10101010 (0000ms, 0846ms total)
T0974 044:710 JLINK_ReadReg(R11)  returns 0x11111111 (0000ms, 0846ms total)
T0974 044:710 JLINK_ReadReg(R12)  returns 0x12121212 (0000ms, 0846ms total)
T0974 044:710 JLINK_ReadReg(R13 (SP))  returns 0x20009CE8 (0000ms, 0846ms total)
T0974 044:710 JLINK_ReadReg(R14)  returns 0x0801120F (0000ms, 0846ms total)
T0974 044:710 JLINK_ReadReg(R15 (PC))  returns 0x0801FF48 (0000ms, 0846ms total)
T0974 044:710 JLINK_ReadReg(XPSR)  returns 0x0100001B (0000ms, 0846ms total)
T0974 044:710 JLINK_ReadReg(MSP)  returns 0x20009CE8 (0000ms, 0846ms total)
T0974 044:710 JLINK_ReadReg(PSP)  returns 0x20000CE0 (0000ms, 0846ms total)
T0974 044:710 JLINK_ReadReg(CFBP)  returns 0x00000000 (0000ms, 0846ms total)
T062C 044:711 JLINK_ReadMem (0x20009CEC, 0x0004 Bytes, ...) -- CPU_ReadMem(64 bytes @ 0x20009CC0) -- Updating C cache (64 bytes @ 0x20009CC0) -- Read from C cache (4 bytes @ 0x20009CEC) - Data: FD FF FF FF  returns 0x00 (0001ms, 0847ms total)
T062C 044:712 JLINK_ReadMem (0x20000CF8, 0x0004 Bytes, ...) -- CPU_ReadMem(64 bytes @ 0x20000CC0) -- Updating C cache (64 bytes @ 0x20000CC0) -- Read from C cache (4 bytes @ 0x20000CF8) - Data: 82 88 01 08  returns 0x00 (0001ms, 0848ms total)
T062C 044:713 JLINK_ReadMem (0x20000CFC, 0x0004 Bytes, ...) -- Read from C cache (4 bytes @ 0x20000CFC) - Data: 00 00 00 21  returns 0x00 (0000ms, 0848ms total)
T062C 044:713 JLINK_ReadMem (0x20000CF4, 0x0004 Bytes, ...) -- Read from C cache (4 bytes @ 0x20000CF4) - Data: E5 0D 02 08  returns 0x00 (0000ms, 0848ms total)
T062C 044:713 JLINK_ReadMem (0xE000ED28, 0x0004 Bytes, ...) -- CPU_ReadMem(4 bytes @ 0xE000ED28) - Data: 00 00 00 00  returns 0x00 (0001ms, 0849ms total)
T062C 044:714 JLINK_ReadMemU32(0xE0001004, 0x0001 Items, ...) -- CPU_ReadMem(4 bytes @ 0xE0001004) - Data: 14 20 19 01  returns 0x01 (0001ms, 0850ms total)
T062C 044:715 JLINK_ReadMem (0x20000428, 0x0004 Bytes, ...) -- CPU_ReadMem(64 bytes @ 0x20000400) -- Updating C cache (64 bytes @ 0x20000400) -- Read from C cache (4 bytes @ 0x20000428) - Data: 54 68 00 20  returns 0x00 (0001ms, 0851ms total)
T062C 044:716 JLINK_ReadMem (0x20000434, 0x0004 Bytes, ...) -- Read from C cache (4 bytes @ 0x20000434) - Data: 50 69 00 20  returns 0x00 (0000ms, 0851ms total)
T062C 044:716 JLINK_ReadMem (0x20002E10, 0x0004 Bytes, ...) -- CPU_ReadMem(64 bytes @ 0x20002E00) -- Updating C cache (64 bytes @ 0x20002E00) -- Read from C cache (4 bytes @ 0x20002E10) - Data: 00 00 00 00  returns 0x00 (0001ms, 0852ms total)
T062C 044:717 JLINK_ReadMem (0x20002E14, 0x0004 Bytes, ...) -- Read from C cache (4 bytes @ 0x20002E14) - Data: 00 00 00 00  returns 0x00 (0000ms, 0852ms total)
T062C 044:717 JLINK_ReadMem (0x20002DAA, 0x0002 Bytes, ...) -- CPU_ReadMem(64 bytes @ 0x20002D80) -- Updating C cache (64 bytes @ 0x20002D80) -- Read from C cache (2 bytes @ 0x20002DAA) - Data: 00 00  returns 0x00 (0001ms, 0853ms total)
T062C 044:718 JLINK_ReadMem (0x2000031C, 0x0002 Bytes, ...) -- CPU_ReadMem(64 bytes @ 0x20000300) -- Updating C cache (64 bytes @ 0x20000300) -- Read from C cache (2 bytes @ 0x2000031C) - Data: 00 00  returns 0x00 (0001ms, 0854ms total)
T062C 044:719 JLINK_ReadMem (0x200003B8, 0x0004 Bytes, ...) -- CPU_ReadMem(64 bytes @ 0x20000380) -- Updating C cache (64 bytes @ 0x20000380) -- Read from C cache (4 bytes @ 0x200003B8) - Data: 00 00 00 00  returns 0x00 (0001ms, 0855ms total)
T062C 044:720 JLINK_ReadMem (0x20005FF0, 0x0010 Bytes, ...) -- CPU_ReadMem(64 bytes @ 0x20005FC0) -- Updating C cache (64 bytes @ 0x20005FC0) -- Read from C cache (16 bytes @ 0x20005FF0) - Data: 00 00 00 00 00 00 00 00 00 00 00 00 00 00 00 00  returns 0x00 (0001ms, 0856ms total)
T062C 044:721 JLINK_ReadMem (0x20006000, 0x0010 Bytes, ...) -- CPU_ReadMem(64 bytes @ 0x20006000) -- Updating C cache (64 bytes @ 0x20006000) -- Read from C cache (16 bytes @ 0x20006000) - Data: 00 00 00 00 00 00 00 00 00 00 00 00 00 00 00 00  returns 0x00 (0001ms, 0857ms total)
T062C 044:722 JLINK_ReadMem (0x20001490, 0x0020 Bytes, ...) -- CPU_ReadMem(64 bytes @ 0x20001480) -- Updating C cache (64 bytes @ 0x20001480) -- Read from C cache (32 bytes @ 0x20001490) - Data: 02 03 01 EF 00 0E F4 34 02 03 01 EF 00 0E F4 34 ...  returns 0x00 (0001ms, 0858ms total)
T062C 044:723 JLINK_ReadMem (0x200002B0, 0x0008 Bytes, ...) -- CPU_ReadMem(64 bytes @ 0x20000280) -- Updating C cache (64 bytes @ 0x20000280) -- Read from C cache (8 bytes @ 0x200002B0) - Data: 60 55 02 00 00 00 00 00  returns 0x00 (0002ms, 0860ms total)
T0974 048:431 JLINK_Step() -- CPU_ReadMem(64 bytes @ 0x0801FF40) -- Updating C cache (64 bytes @ 0x0801FF40) -- Read from C cache (2 bytes @ 0x0801FF48) -- CPU_ReadMem(64 bytes @ 0x0801FF80) -- Updating C cache (64 bytes @ 0x0801FF80) -- Read from C cache (4 bytes @ 0x0801FF98) -- Simulated  returns 0x00 (0004ms, 0864ms total)
T0974 048:435 JLINK_ReadReg(R15 (PC))  returns 0x0801FF4A (0000ms, 0864ms total)
T0974 048:435 JLINK_ReadReg(XPSR)  returns 0x0100001B (0000ms, 0864ms total)
T0974 048:435 JLINK_SetBPEx(Addr = 0x08015D3C, Type = 0xFFFFFFF2)  returns 0x00000007 (0000ms, 0864ms total)
T0974 048:435 JLINK_SetBPEx(Addr = 0x0801FF48, Type = 0xFFFFFFF2)  returns 0x00000008 (0000ms, 0864ms total)
T0974 048:435 JLINK_Go() -- CPU_WriteMem(4 bytes @ 0xE0002000) -- CPU_WriteMem(4 bytes @ 0xE0002000) -- CPU_ReadMem(4 bytes @ 0xE0001000) -- CPU_WriteMem(4 bytes @ 0xE0001004) (0006ms, 0870ms total)
T0974 048:541 JLINK_IsHalted()  returns TRUE (0003ms, 0873ms total)
T0974 048:544 JLINK_Halt()  returns 0x00 (0000ms, 0870ms total)
T0974 048:544 JLINK_IsHalted()  returns TRUE (0000ms, 0870ms total)
T0974 048:544 JLINK_IsHalted()  returns TRUE (0000ms, 0870ms total)
T0974 048:544 JLINK_IsHalted()  returns TRUE (0000ms, 0870ms total)
T0974 048:544 JLINK_ReadReg(R15 (PC))  returns 0x0801FF48 (0000ms, 0870ms total)
T0974 048:544 JLINK_ReadReg(XPSR)  returns 0x0100001B (0000ms, 0870ms total)
T0974 048:544 JLINK_ClrBPEx(BPHandle = 0x00000007)  returns 0x00 (0000ms, 0870ms total)
T0974 048:544 JLINK_ClrBPEx(BPHandle = 0x00000008)  returns 0x00 (0000ms, 0870ms total)
T0974 048:544 JLINK_ReadMemU32(0xE000ED30, 0x0001 Items, ...) -- CPU_ReadMem(4 bytes @ 0xE000ED30) - Data: 03 00 00 00  returns 0x01 (0001ms, 0871ms total)
T0974 048:545 JLINK_ReadMemU32(0xE0001028, 0x0001 Items, ...) -- CPU_ReadMem(4 bytes @ 0xE0001028) - Data: 00 00 00 00  returns 0x01 (0001ms, 0872ms total)
T0974 048:546 JLINK_ReadMemU32(0xE0001038, 0x0001 Items, ...) -- CPU_ReadMem(4 bytes @ 0xE0001038) - Data: 00 02 00 00  returns 0x01 (0001ms, 0873ms total)
T0974 048:547 JLINK_ReadMemU32(0xE0001048, 0x0001 Items, ...) -- CPU_ReadMem(4 bytes @ 0xE0001048) - Data: 00 00 00 00  returns 0x01 (0001ms, 0874ms total)
T0974 048:548 JLINK_ReadMemU32(0xE0001058, 0x0001 Items, ...) -- CPU_ReadMem(4 bytes @ 0xE0001058) - Data: 00 00 00 00  returns 0x01 (0001ms, 0875ms total)
T0974 048:549 JLINK_ReadReg(R0)  returns 0x0000E8AD (0000ms, 0875ms total)
T0974 048:549 JLINK_ReadReg(R1)  returns 0x00030000 (0000ms, 0875ms total)
T0974 048:549 JLINK_ReadReg(R2)  returns 0x00000002 (0000ms, 0875ms total)
T0974 048:549 JLINK_ReadReg(R3)  returns 0xFFFFFFFD (0000ms, 0875ms total)
T0974 048:549 JLINK_ReadReg(R4)  returns 0x0003E8AD (0000ms, 0875ms total)
T0974 048:549 JLINK_ReadReg(R5)  returns 0x00000004 (0000ms, 0875ms total)
T0974 048:549 JLINK_ReadReg(R6)  returns 0x06060606 (0000ms, 0875ms total)
T0974 048:549 JLINK_ReadReg(R7)  returns 0x07070707 (0000ms, 0875ms total)
T0974 048:549 JLINK_ReadReg(R8)  returns 0x08080808 (0000ms, 0875ms total)
T0974 048:549 JLINK_ReadReg(R9)  returns 0x09090909 (0000ms, 0875ms total)
T0974 048:549 JLINK_ReadReg(R10)  returns 0x10101010 (0000ms, 0875ms total)
T0974 048:549 JLINK_ReadReg(R11)  returns 0x11111111 (0000ms, 0875ms total)
T0974 048:549 JLINK_ReadReg(R12)  returns 0x12121212 (0000ms, 0875ms total)
T0974 048:549 JLINK_ReadReg(R13 (SP))  returns 0x20009CE8 (0000ms, 0875ms total)
T0974 048:549 JLINK_ReadReg(R14)  returns 0x0801120F (0000ms, 0875ms total)
T0974 048:549 JLINK_ReadReg(R15 (PC))  returns 0x0801FF48 (0000ms, 0875ms total)
T0974 048:549 JLINK_ReadReg(XPSR)  returns 0x0100001B (0000ms, 0875ms total)
T0974 048:549 JLINK_ReadReg(MSP)  returns 0x20009CE8 (0000ms, 0875ms total)
T0974 048:549 JLINK_ReadReg(PSP)  returns 0x20000CE0 (0000ms, 0875ms total)
T0974 048:549 JLINK_ReadReg(CFBP)  returns 0x00000000 (0000ms, 0875ms total)
T062C 048:550 JLINK_ReadMem (0x20009CEC, 0x0004 Bytes, ...) -- CPU_ReadMem(64 bytes @ 0x20009CC0) -- Updating C cache (64 bytes @ 0x20009CC0) -- Read from C cache (4 bytes @ 0x20009CEC) - Data: FD FF FF FF  returns 0x00 (0001ms, 0876ms total)
T062C 048:551 JLINK_ReadMem (0x20000CF8, 0x0004 Bytes, ...) -- CPU_ReadMem(64 bytes @ 0x20000CC0) -- Updating C cache (64 bytes @ 0x20000CC0) -- Read from C cache (4 bytes @ 0x20000CF8) - Data: E4 0D 02 08  returns 0x00 (0001ms, 0877ms total)
T062C 048:552 JLINK_ReadMem (0x20000CFC, 0x0004 Bytes, ...) -- Read from C cache (4 bytes @ 0x20000CFC) - Data: 00 00 00 41  returns 0x00 (0000ms, 0877ms total)
T062C 048:552 JLINK_ReadMem (0x20000CF4, 0x0004 Bytes, ...) -- Read from C cache (4 bytes @ 0x20000CF4) - Data: E5 0D 02 08  returns 0x00 (0000ms, 0877ms total)
T062C 048:552 JLINK_ReadMem (0xE000ED28, 0x0004 Bytes, ...) -- CPU_ReadMem(4 bytes @ 0xE000ED28) - Data: 00 00 00 00  returns 0x00 (0001ms, 0878ms total)
T062C 048:553 JLINK_ReadMem (0x20000D0C, 0x0004 Bytes, ...) -- CPU_ReadMem(64 bytes @ 0x20000D00) -- Updating C cache (64 bytes @ 0x20000D00) -- Read from C cache (4 bytes @ 0x20000D0C) - Data: 0D ED 01 08  returns 0x00 (0001ms, 0879ms total)
T062C 048:554 JLINK_ReadMem (0x20000D00, 0x0004 Bytes, ...) -- Read from C cache (4 bytes @ 0x20000D00) - Data: 04 04 04 04  returns 0x00 (0000ms, 0879ms total)
T062C 048:554 JLINK_ReadMem (0x20000D04, 0x0004 Bytes, ...) -- Read from C cache (4 bytes @ 0x20000D04) - Data: 05 05 05 05  returns 0x00 (0000ms, 0879ms total)
T062C 048:554 JLINK_ReadMem (0x20000D08, 0x0004 Bytes, ...) -- Read from C cache (4 bytes @ 0x20000D08) - Data: 06 06 06 06  returns 0x00 (0000ms, 0879ms total)
T062C 048:555 JLINK_ReadMemU32(0xE0001004, 0x0001 Items, ...) -- CPU_ReadMem(4 bytes @ 0xE0001004) - Data: DB 5F 19 01  returns 0x01 (0001ms, 0880ms total)
T062C 048:556 JLINK_ReadMem (0x20000428, 0x0004 Bytes, ...) -- CPU_ReadMem(64 bytes @ 0x20000400) -- Updating C cache (64 bytes @ 0x20000400) -- Read from C cache (4 bytes @ 0x20000428) - Data: 54 68 00 20  returns 0x00 (0001ms, 0881ms total)
T062C 048:557 JLINK_ReadMem (0x20000434, 0x0004 Bytes, ...) -- Read from C cache (4 bytes @ 0x20000434) - Data: 50 69 00 20  returns 0x00 (0000ms, 0881ms total)
T062C 048:558 JLINK_ReadMem (0x20002E10, 0x0004 Bytes, ...) -- CPU_ReadMem(64 bytes @ 0x20002E00) -- Updating C cache (64 bytes @ 0x20002E00) -- Read from C cache (4 bytes @ 0x20002E10) - Data: 00 00 00 00  returns 0x00 (0000ms, 0881ms total)
T062C 048:558 JLINK_ReadMem (0x20002E14, 0x0004 Bytes, ...) -- Read from C cache (4 bytes @ 0x20002E14) - Data: 00 00 00 00  returns 0x00 (0000ms, 0881ms total)
T062C 048:558 JLINK_ReadMem (0x20002DAA, 0x0002 Bytes, ...) -- CPU_ReadMem(64 bytes @ 0x20002D80) -- Updating C cache (64 bytes @ 0x20002D80) -- Read from C cache (2 bytes @ 0x20002DAA) - Data: 00 00  returns 0x00 (0001ms, 0882ms total)
T062C 048:559 JLINK_ReadMem (0x2000031C, 0x0002 Bytes, ...) -- CPU_ReadMem(64 bytes @ 0x20000300) -- Updating C cache (64 bytes @ 0x20000300) -- Read from C cache (2 bytes @ 0x2000031C) - Data: 00 00  returns 0x00 (0001ms, 0883ms total)
T062C 048:560 JLINK_ReadMem (0x200003B8, 0x0004 Bytes, ...) -- CPU_ReadMem(64 bytes @ 0x20000380) -- Updating C cache (64 bytes @ 0x20000380) -- Read from C cache (4 bytes @ 0x200003B8) - Data: 00 00 00 00  returns 0x00 (0001ms, 0884ms total)
T062C 048:561 JLINK_ReadMem (0x20005FF0, 0x0010 Bytes, ...) -- CPU_ReadMem(64 bytes @ 0x20005FC0) -- Updating C cache (64 bytes @ 0x20005FC0) -- Read from C cache (16 bytes @ 0x20005FF0) - Data: 00 00 00 00 00 00 00 00 00 00 00 00 00 00 00 00  returns 0x00 (0001ms, 0885ms total)
T062C 048:562 JLINK_ReadMem (0x20006000, 0x0010 Bytes, ...) -- CPU_ReadMem(64 bytes @ 0x20006000) -- Updating C cache (64 bytes @ 0x20006000) -- Read from C cache (16 bytes @ 0x20006000) - Data: 00 00 00 00 00 00 00 00 00 00 00 00 00 00 00 00  returns 0x00 (0001ms, 0886ms total)
T062C 048:563 JLINK_ReadMem (0x20001490, 0x0020 Bytes, ...) -- CPU_ReadMem(64 bytes @ 0x20001480) -- Updating C cache (64 bytes @ 0x20001480) -- Read from C cache (32 bytes @ 0x20001490) - Data: 02 03 01 EF 00 0E F4 34 02 03 01 EF 00 0E F4 34 ...  returns 0x00 (0001ms, 0887ms total)
T062C 048:565 JLINK_ReadMem (0x200002B0, 0x0008 Bytes, ...) -- CPU_ReadMem(64 bytes @ 0x20000280) -- Updating C cache (64 bytes @ 0x20000280) -- Read from C cache (8 bytes @ 0x200002B0) - Data: CC E7 03 00 00 00 00 00  returns 0x00 (0001ms, 0888ms total)
T0974 049:464 JLINK_Step() -- CPU_ReadMem(64 bytes @ 0x0801FF40) -- Updating C cache (64 bytes @ 0x0801FF40) -- Read from C cache (2 bytes @ 0x0801FF48) -- CPU_ReadMem(64 bytes @ 0x0801FF80) -- Updating C cache (64 bytes @ 0x0801FF80) -- Read from C cache (4 bytes @ 0x0801FF98) -- Simulated  returns 0x00 (0003ms, 0891ms total)
T0974 049:467 JLINK_ReadReg(R15 (PC))  returns 0x0801FF4A (0000ms, 0891ms total)
T0974 049:467 JLINK_ReadReg(XPSR)  returns 0x0100001B (0000ms, 0891ms total)
T0974 049:467 JLINK_SetBPEx(Addr = 0x08015D3C, Type = 0xFFFFFFF2)  returns 0x00000009 (0000ms, 0891ms total)
T0974 049:467 JLINK_SetBPEx(Addr = 0x0801FF48, Type = 0xFFFFFFF2)  returns 0x0000000A (0000ms, 0891ms total)
T0974 049:467 JLINK_Go() -- CPU_WriteMem(4 bytes @ 0xE0002000) -- CPU_WriteMem(4 bytes @ 0xE0002000) -- CPU_ReadMem(4 bytes @ 0xE0001000) -- CPU_WriteMem(4 bytes @ 0xE0001004) (0006ms, 0897ms total)
T0974 049:573 JLINK_IsHalted()  returns TRUE (0003ms, 0900ms total)
T0974 049:576 JLINK_Halt()  returns 0x00 (0000ms, 0897ms total)
T0974 049:576 JLINK_IsHalted()  returns TRUE (0000ms, 0897ms total)
T0974 049:576 JLINK_IsHalted()  returns TRUE (0000ms, 0897ms total)
T0974 049:576 JLINK_IsHalted()  returns TRUE (0000ms, 0897ms total)
T0974 049:576 JLINK_ReadReg(R15 (PC))  returns 0x0801FF48 (0000ms, 0897ms total)
T0974 049:576 JLINK_ReadReg(XPSR)  returns 0x0100001B (0000ms, 0897ms total)
T0974 049:576 JLINK_ClrBPEx(BPHandle = 0x00000009)  returns 0x00 (0000ms, 0897ms total)
T0974 049:576 JLINK_ClrBPEx(BPHandle = 0x0000000A)  returns 0x00 (0000ms, 0897ms total)
T0974 049:576 JLINK_ReadMemU32(0xE000ED30, 0x0001 Items, ...) -- CPU_ReadMem(4 bytes @ 0xE000ED30) - Data: 03 00 00 00  returns 0x01 (0001ms, 0898ms total)
